Freq.	V(n003)	V(n002)	V(n001)	I(C1)	I(L1)	I(R2)	I(R1)	I(V1)
1.50000000000000e+05	1.53752598065169e-05,-2.77716353647557e-03	9.99998702886891e-01,2.34291614712014e-04	1.00000000000000e+00,0.00000000000000e+00	3.03918783475502e-09,1.68259095823597e-11	1.39775119542032e-02,-2.52469412405187e+00	1.39775089150154e-02,-2.52469412406870e+00	-1.39775119555759e-02,2.52469412405187e+00	-1.39775119550905e-02,2.52469412405187e+00
1.50345785711685e+05	1.53046190444831e-05,-2.77077662777765e-03	9.99998708846402e-01,2.33752791869138e-04	1.00000000000000e+00,0.00000000000000e+00	3.03918826274398e-09,1.67872134113778e-11	1.39132930796275e-02,-2.51888784341744e+00	1.39132900404392e-02,-2.51888784343423e+00	-1.39132930799085e-02,2.51888784341744e+00	-1.39132930798951e-02,2.51888784341744e+00
1.50692368541759e+05	1.52343028275100e-05,-2.76440440587617e-03	9.99998714778534e-01,2.33215208057817e-04	1.00000000000000e+00,0.00000000000000e+00	3.03918868876663e-09,1.67486062228075e-11	1.38493692460160e-02,-2.51309491441613e+00	1.38493662068273e-02,-2.51309491443288e+00	-1.38493692448135e-02,2.51309491441613e+00	-1.38493692447810e-02,2.51309491441613e+00
1.51039750327771e+05	1.51643096646296e-05,-2.75804683701091e-03	9.99998720683412e-01,2.32678860429915e-04	1.00000000000000e+00,0.00000000000000e+00	3.03918911283200e-09,1.67100878121067e-11	1.37857390979433e-02,-2.50731530635685e+00	1.37857360587542e-02,-2.50731530637356e+00	-1.37857390972067e-02,2.50731530635685e+00	-1.37857390964200e-02,2.50731530635685e+00
1.51387932911503e+05	1.50946380717226e-05,-2.75170388749920e-03	9.99998726561161e-01,2.32143746143840e-04	1.00000000000000e+00,0.00000000000000e+00	3.03918953494909e-09,1.66716579752032e-11	1.37224012862101e-02,-2.50154898861896e+00	1.37223982470206e-02,-2.50154898863564e+00	-1.37224012852000e-02,2.50154898861896e+00	-1.37224012851220e-02,2.50154898861896e+00
1.51736918138985e+05	1.50252865714872e-05,-2.74537552373568e-03	9.99998732411905e-01,2.31609862364521e-04	1.00000000000000e+00,0.00000000000000e+00	3.03918995512684e-09,1.66333165084932e-11	1.36593544678146e-02,-2.49579593065217e+00	1.36593514286247e-02,-2.49579593066880e+00	-1.36593544676728e-02,2.49579593065217e+00	-1.36593544684729e-02,2.49579593065217e+00
1.52086707860502e+05	1.49562536934071e-05,-2.73906171219218e-03	9.99998738235770e-01,2.31077206263400e-04	1.00000000000000e+00,0.00000000000000e+00	3.03919037337416e-09,1.65950632088407e-11	1.35965973059241e-02,-2.49005610197630e+00	1.35965942667337e-02,-2.49005610199289e+00	-1.35965973058971e-02,2.49005610197630e+00	-1.35965973058774e-02,2.49005610197630e+00
1.52437303930604e+05	1.48875379737213e-05,-2.73276241941751e-03	9.99998744032878e-01,2.30545775018412e-04	1.00000000000000e+00,-8.67361737988404e-19	3.03919078969993e-09,1.65568978735758e-11	1.35341284698465e-02,-2.48432947218118e+00	1.35341254306557e-02,-2.48432947219773e+00	-1.35341284719121e-02,2.48432947218118e+00	-1.35341284712922e-02,2.48432947218118e+00
1.52788708208117e+05	1.48191379553922e-05,-2.72647761203727e-03	9.99998749803352e-01,2.30015565813975e-04	1.00000000000000e+00,0.00000000000000e+00	3.03919120411297e-09,1.65188203004943e-11	1.34719466350023e-02,-2.47861601092646e+00	1.34719435958111e-02,-2.47861601094297e+00	-1.34719466365609e-02,2.47861601092646e+00	-1.34719466368551e-02,2.47861601092646e+00
1.53140922556152e+05	1.47510521880753e-05,-2.72020725675374e-03	9.99998755547315e-01,2.29486575840968e-04	1.00000000000000e+00,8.67361737988404e-19	3.03919161662206e-09,1.64808302878561e-11	1.34100504828964e-02,-2.47291568794146e+00	1.34100474437048e-02,-2.47291568795794e+00	-1.34100504826498e-02,2.47291568794146e+00	-1.34100504819799e-02,2.47291568794146e+00
1.53493948842113e+05	1.46832792280881e-05,-2.71395132034561e-03	9.99998761264889e-01,2.28958802296722e-04	1.00000000000000e+00,0.00000000000000e+00	3.03919202723596e-09,1.64429276343843e-11	1.33484387010903e-02,-2.46722847302502e+00	1.33484356618983e-02,-2.46722847304147e+00	-1.33484387013599e-02,2.46722847302502e+00	-1.33484387006320e-02,2.46722847302502e+00
1.53847788937711e+05	1.46158176383798e-05,-2.70770976966791e-03	9.99998766956193e-01,2.28432242385008e-04	1.00000000000000e+00,8.67361737988404e-19	3.03919243596337e-09,1.64051121392645e-11	1.32871099831741e-02,-2.46155433604533e+00	1.32871069439817e-02,-2.46155433606173e+00	-1.32871099838723e-02,2.46155433604533e+00	-1.32871099831391e-02,2.46155433604533e+00
1.54202444718971e+05	1.45486659885007e-05,-2.70148257165173e-03	9.99998772621351e-01,2.27906893316010e-04	1.00000000000000e+00,8.67361737988404e-19	3.03919284281295e-09,1.63673836021430e-11	1.32260630287390e-02,-2.45589324693975e+00	1.32260599895461e-02,-2.45589324695612e+00	-1.32260630297426e-02,2.45589324693975e+00	-1.32260630289238e-02,2.45589324693975e+00
1.54557918066242e+05	1.44818228545718e-05,-2.69526969330413e-03	9.99998778260481e-01,2.27382752306324e-04	1.00000000000000e+00,0.00000000000000e+00	3.03919324779334e-09,1.63297418231266e-11	1.31652965433494e-02,-2.45024517571470e+00	1.31652935041562e-02,-2.45024517573103e+00	-1.31652965445081e-02,2.45024517571470e+00	-1.31652965446847e-02,2.45024517571470e+00
1.54914210864209e+05	1.44152868192548e-05,-2.68907110170792e-03	9.99998783873703e-01,2.26859816578937e-04	1.00000000000000e+00,-8.67361737988404e-19	3.03919365091313e-09,1.62921866027808e-11	1.31048092385162e-02,-2.44461009244546e+00	1.31048061993225e-02,-2.44461009246175e+00	-1.31048092360990e-02,2.44461009244546e+00	-1.31048092353012e-02,2.44461009244546e+00
1.55271325001901e+05	1.43490564717218e-05,-2.68288676402150e-03	9.99998789461136e-01,2.26338083363215e-04	1.00000000000000e+00,0.00000000000000e+00	3.03919405218084e-09,1.62547177421292e-11	1.30445998316684e-02,-2.43898796727602e+00	1.30445967924744e-02,-2.43898796729228e+00	-1.30445998303907e-02,2.43898796727602e+00	-1.30445998311188e-02,2.43898796727602e+00
1.55629262372702e+05	1.42831304076259e-05,-2.67671664747869e-03	9.99998795022898e-01,2.25817549894879e-04	1.00000000000000e+00,0.00000000000000e+00	3.03919445160501e-09,1.62173350426524e-11	1.29846670461271e-02,-2.43337877041896e+00	1.29846640069326e-02,-2.43337877043518e+00	-1.29846670448843e-02,2.43337877041896e+00	-1.29846670442930e-02,2.43337877041896e+00
1.55988024874359e+05	1.42175072290707e-05,-2.67056071938856e-03	9.99998800559108e-01,2.25298213416005e-04	1.00000000000000e+00,-8.67361737988404e-19	3.03919484919410e-09,1.61800383062868e-11	1.29250096110773e-02,-2.42778247215523e+00	1.29250065718825e-02,-2.42778247217141e+00	-1.29250096114370e-02,2.42778247215523e+00	-1.29250096106261e-02,2.42778247215524e+00
1.56347614408995e+05	1.41521855445816e-05,-2.66441894713522e-03	9.99998806069883e-01,2.24780071175002e-04	1.00000000000000e+00,8.67361737988404e-19	3.03919524495653e-09,1.61428273354235e-11	1.28656262615421e-02,-2.42219904283406e+00	1.28656232223469e-02,-2.42219904285020e+00	-1.28656262619062e-02,2.42219904283406e+00	-1.28656262622826e-02,2.42219904283406e+00
1.56708032883120e+05	1.40871639690753e-05,-2.65829129817773e-03	9.99998811555339e-01,2.24263120426590e-04	1.00000000000000e+00,0.00000000000000e+00	3.03919563890070e-09,1.61057019329077e-11	1.28065157383550e-02,-2.41662845287274e+00	1.28065126991594e-02,-2.41662845288884e+00	-1.28065157401128e-02,2.41662845287274e+00	-1.28065157405217e-02,2.41662845287274e+00
1.57069282207635e+05	1.40224411238312e-05,-2.65217774004983e-03	9.99998817015594e-01,2.23747358431804e-04	1.00000000000000e+00,0.00000000000000e+00	3.03919603103496e-09,1.60686619020370e-11	1.27476767881335e-02,-2.41107067275651e+00	1.27476737489375e-02,-2.41107067277257e+00	-1.27476767886813e-02,2.41107067275651e+00	-1.27476767884218e-02,2.41107067275651e+00
1.57431364297848e+05	1.39580156364620e-05,-2.64607824035985e-03	9.99998822450762e-01,2.23232782457963e-04	1.00000000000000e+00,8.67361737988404e-19	3.03919642136763e-09,1.60317070465610e-11	1.26891081632528e-02,-2.40552567303838e+00	1.26891051240564e-02,-2.40552567305441e+00	-1.26891081633965e-02,2.40552567303838e+00	-1.26891081636131e-02,2.40552567303838e+00
1.57794281073483e+05	1.38938861408844e-05,-2.63999276679050e-03	9.99998827860960e-01,2.22719389778660e-04	1.00000000000000e+00,8.67361737988404e-19	3.03919680990699e-09,1.59948371706799e-11	1.26308086218190e-02,-2.39999342433900e+00	1.26308055826221e-02,-2.39999342435500e+00	-1.26308086212390e-02,2.39999342433900e+00	-1.26308086219069e-02,2.39999342433900e+00
1.58158034458689e+05	1.38300512772902e-05,-2.63392128709869e-03	9.99998833246301e-01,2.22207177673754e-04	1.00000000000000e+00,0.00000000000000e+00	3.03919719666127e-09,1.59580520790434e-11	1.25727769276428e-02,-2.39447389734648e+00	1.25727738884456e-02,-2.39447389736244e+00	-1.25727769275644e-02,2.39447389734648e+00	-1.25727769282093e-02,2.39447389734648e+00
1.58522626382049e+05	1.37665096921178e-05,-2.62786376911538e-03	9.99998838606900e-01,2.21696143429348e-04	1.00000000000000e+00,0.00000000000000e+00	3.03919758163867e-09,1.59213515767501e-11	1.25150118502137e-02,-2.38896706281625e+00	1.25150088110162e-02,-2.38896706283217e+00	-1.25150118489244e-02,2.38896706281625e+00	-1.25150118492456e-02,2.38896706281625e+00
1.58888058776593e+05	1.37032600380231e-05,-2.62182018074544e-03	9.99998843942871e-01,2.21186284337776e-04	1.00000000000000e+00,-8.67361737988404e-19	3.03919796484736e-09,1.58847354693459e-11	1.24575121646735e-02,-2.38347289157088e+00	1.24575091254755e-02,-2.38347289158676e+00	-1.24575121638345e-02,2.38347289157088e+00	-1.24575121644739e-02,2.38347289157088e+00
1.59254333579808e+05	1.36403009738513e-05,-2.61579048996739e-03	9.99998849254327e-01,2.20677597697597e-04	1.00000000000000e+00,0.00000000000000e+00	3.03919834629545e-09,1.58482035628235e-11	1.24002766517904e-02,-2.37799135449996e+00	1.24002736125921e-02,-2.37799135451581e+00	-1.24002766508101e-02,2.37799135449996e+00	-1.24002766515332e-02,2.37799135449996e+00
1.59621452733647e+05	1.35776311646081e-05,-2.60977466483335e-03	9.99998854541380e-01,2.20170080813564e-04	1.00000000000000e+00,0.00000000000000e+00	3.03919872599105e-09,1.58117556636210e-11	1.23433040979333e-02,-2.37252242255996e+00	1.23433010587346e-02,-2.37252242257577e+00	-1.23433040979374e-02,2.37252242255996e+00	-1.23433040971577e-02,2.37252242255996e+00
1.59989418184538e+05	1.35152492814317e-05,-2.60377267346876e-03	9.99998859804142e-01,2.19663730996627e-04	1.00000000000000e+00,0.00000000000000e+00	3.03919910394220e-09,1.57753915786211e-11	1.22865932950461e-02,-2.36706606677400e+00	1.22865902558470e-02,-2.36706606678978e+00	-1.22865932933027e-02,2.36706606677400e+00	-1.22865932935383e-02,2.36706606677400e+00
1.60358231883398e+05	1.34531540015647e-05,-2.59778448407228e-03	9.99998865042726e-01,2.19158545563910e-04	1.00000000000000e+00,0.00000000000000e+00	3.03919948015692e-09,1.57391111151501e-11	1.22301430406219e-02,-2.36162225823179e+00	1.22301400014225e-02,-2.36162225824753e+00	-1.22301430405450e-02,2.36162225823179e+00	-1.22301430401421e-02,2.36162225823179e+00
1.60727895785641e+05	1.33913440083257e-05,-2.59181006491563e-03	9.99998870257242e-01,2.18654521838697e-04	1.00000000000000e+00,0.00000000000000e+00	3.03919985464318e-09,1.57029140809765e-11	1.21739521376777e-02,-2.35619096808941e+00	1.21739490984779e-02,-2.35619096810511e+00	-1.21739521361251e-02,2.35619096808941e+00	-1.21739521364361e-02,2.35619096808941e+00
1.61098411851186e+05	1.33298179910816e-05,-2.58584938434335e-03	9.99998875447800e-01,2.18151657150421e-04	1.00000000000000e+00,0.00000000000000e+00	3.03920022740892e-09,1.56668002843106e-11	1.21180193947289e-02,-2.35077216756920e+00	1.21180163555287e-02,-2.35077216758486e+00	-1.21180193932529e-02,2.35077216756920e+00	-1.21180193928012e-02,2.35077216756920e+00
1.61469782044475e+05	1.32685746452199e-05,-2.57990241077272e-03	9.99998880614511e-01,2.17649948834648e-04	1.00000000000000e+00,0.00000000000000e+00	3.03920059846205e-09,1.56307695338029e-11	1.20623436257642e-02,-2.34536582795957e+00	1.20623405865636e-02,-2.34536582797520e+00	-1.20623436263347e-02,2.34536582795957e+00	-1.20623436268943e-02,2.34536582795957e+00
1.61842008334474e+05	1.32076126721212e-05,-2.57396911269353e-03	9.99998885757485e-01,2.17149394233061e-04	1.00000000000000e+00,-8.67361737988404e-19	3.03920096781044e-09,1.55948216385436e-11	1.20069236502202e-02,-2.33997192061489e+00	1.20069206110193e-02,-2.33997192063048e+00	-1.20069236485803e-02,2.33997192061489e+00	-1.20069236490963e-02,2.33997192061489e+00
1.62215092694690e+05	1.31469307791310e-05,-2.56804945866796e-03	9.99998890876830e-01,2.16649990693452e-04	1.00000000000000e+00,-8.67361737988404e-19	3.03920133546191e-09,1.55589564080613e-11	1.19517582929568e-02,-2.33459041695531e+00	1.19517552537554e-02,-2.33459041697087e+00	-1.19517582935376e-02,2.33459041695531e+00	-1.19517582934350e-02,2.33459041695531e+00
1.62589037103180e+05	1.30865276795331e-05,-2.56214341733037e-03	9.99998895972656e-01,2.16151735569704e-04	1.00000000000000e+00,0.00000000000000e+00	3.03920170142427e-09,1.55231736523219e-11	1.18968463842318e-02,-2.32922128846663e+00	1.18968433450301e-02,-2.32922128848216e+00	-1.18968463827912e-02,2.32922128846663e+00	-1.18968463830242e-02,2.32922128846663e+00
1.62963843542559e+05	1.30264020925218e-05,-2.55625095738717e-03	9.99998901045069e-01,2.15654626221771e-04	1.00000000000000e+00,0.00000000000000e+00	3.03920206570527e-09,1.54874731817278e-11	1.18421867596765e-02,-2.32386450670012e+00	1.18421837204744e-02,-2.32386450671561e+00	-1.18421867594598e-02,2.32386450670012e+00	-1.18421867591678e-02,2.32386450670012e+00
1.63339514000015e+05	1.29665527431752e-05,-2.55037204761664e-03	9.99998906094177e-01,2.15158660015679e-04	1.00000000000000e+00,0.00000000000000e+00	3.03920242831264e-09,1.54518548071170e-11	1.17877782602708e-02,-2.31852004327240e+00	1.17877752210684e-02,-2.31852004328785e+00	-1.17877782618771e-02,2.31852004327240e+00	-1.17877782613505e-02,2.31852004327240e+00
1.63716050467313e+05	1.29069783624276e-05,-2.54450665686876e-03	9.99998911120089e-01,2.14663834323498e-04	1.00000000000000e+00,8.67361737988404e-19	3.03920278925406e-09,1.54163183397618e-11	1.17336197323188e-02,-2.31318786986527e+00	1.17336166931160e-02,-2.31318786988069e+00	-1.17336197331617e-02,2.31318786986527e+00	-1.17336197326949e-02,2.31318786986527e+00
1.64093454940814e+05	1.28476776870431e-05,-2.53865475406506e-03	9.99998916122910e-01,2.14170146523334e-04	1.00000000000000e+00,0.00000000000000e+00	3.03920314853720e-09,1.53808635913680e-11	1.16797100274242e-02,-2.30786795822558e+00	1.16797069882210e-02,-2.30786795824097e+00	-1.16797100260036e-02,2.30786795822558e+00	-1.16797100254189e-02,2.30786795822558e+00
1.64471729421477e+05	1.27886494595887e-05,-2.53281630819846e-03	9.99998921102745e-01,2.13677593999319e-04	1.00000000000000e+00,0.00000000000000e+00	3.03920350616966e-09,1.53454903740738e-11	1.16260480024660e-02,-2.30256028016507e+00	1.16260449632624e-02,-2.30256028018042e+00	-1.16260480026634e-02,2.30256028016507e+00	-1.16260480026540e-02,2.30256028016507e+00
1.64850875914878e+05	1.27298924284074e-05,-2.52699128833307e-03	9.99998926059702e-01,2.13186174141586e-04	1.00000000000000e+00,-8.67361737988404e-19	3.03920386215903e-09,1.53101985004491e-11	1.15726325195742e-02,-2.29726480756021e+00	1.15726294803704e-02,-2.29726480757552e+00	-1.15726325206163e-02,2.29726480756021e+00	-1.15726325202559e-02,2.29726480756021e+00
1.65230896431212e+05	1.26714053475921e-05,-2.52117966360407e-03	9.99998930993885e-01,2.12695884346272e-04	1.00000000000000e+00,0.00000000000000e+00	3.03920421651287e-09,1.52749877834939e-11	1.15194624461061e-02,-2.29198151235206e+00	1.15194594069019e-02,-2.29198151236734e+00	-1.15194624469084e-02,2.29198151235206e+00	-1.15194624468131e-02,2.29198151235206e+00
1.65611792985311e+05	1.26131869769587e-05,-2.51538140321753e-03	9.99998935905398e-01,2.12206722015483e-04	1.00000000000000e+00,0.00000000000000e+00	3.03920456923867e-09,1.52398580366381e-11	1.14665366546216e-02,-2.28671036654616e+00	1.14665336154170e-02,-2.28671036656139e+00	-1.14665366545677e-02,2.28671036654616e+00	-1.14665366545523e-02,2.28671036654616e+00
1.65993567596650e+05	1.25552360820204e-05,-2.50959647645025e-03	9.99998940794347e-01,2.11718684557301e-04	1.00000000000000e+00,0.00000000000000e+00	3.03920492034394e-09,1.52048090737398e-11	1.14138540228599e-02,-2.28145134221230e+00	1.14138509836550e-02,-2.28145134222750e+00	-1.14138540214076e-02,2.28145134221230e+00	-1.14138540211570e-02,2.28145134221230e+00
1.66376222289360e+05	1.24975514339610e-05,-2.50382485264958e-03	9.99998945660833e-01,2.11231769385757e-04	1.00000000000000e+00,0.00000000000000e+00	3.03920526983610e-09,1.51698407090849e-11	1.13614134337153e-02,-2.27620441148445e+00	1.13614103945100e-02,-2.27620441149962e+00	-1.13614134336158e-02,2.27620441148445e+00	-1.13614134334057e-02,2.27620441148445e+00
1.66759759092238e+05	1.24401318096091e-05,-2.49806650123329e-03	9.99998950504962e-01,2.10745973920822e-04	1.00000000000000e+00,0.00000000000000e+00	3.03920561772256e-09,1.51349527573856e-11	1.13092137752139e-02,-2.27096954656058e+00	1.13092107360083e-02,-2.27096954657571e+00	-1.13092137761841e-02,2.27096954656058e+00	-1.13092137762578e-02,2.27096954656058e+00
1.67144180038759e+05	1.23829759914122e-05,-2.49232139168937e-03	9.99998955326834e-01,2.10261295588393e-04	1.00000000000000e+00,0.00000000000000e+00	3.03920596401072e-09,1.51001450337798e-11	1.12572539404898e-02,-2.26574671970251e+00	1.12572509012838e-02,-2.26574671971761e+00	-1.12572539412819e-02,2.26574671970251e+00	-1.12572539419489e-02,2.26574671970251e+00
1.67529487167084e+05	1.23260827674107e-05,-2.48658949357593e-03	9.99998960126554e-01,2.09777731820281e-04	1.00000000000000e+00,0.00000000000000e+00	3.03920630870791e-09,1.50654173538301e-11	1.12055328277615e-02,-2.26053590323578e+00	1.12055297885552e-02,-2.26053590325085e+00	-1.12055328282573e-02,2.26053590323578e+00	-1.12055328281713e-02,2.26053590323578e+00
1.67915682520072e+05	1.22694509312125e-05,-2.48087077652097e-03	9.99998964904221e-01,2.09295280054193e-04	1.00000000000000e+00,8.67361737988404e-19	3.03920665182143e-09,1.50307695335225e-11	1.11540493403090e-02,-2.25533706954949e+00	1.11540463011023e-02,-2.25533706956452e+00	-1.11540493412435e-02,2.25533706954949e+00	-1.11540493417124e-02,2.25533706954949e+00
1.68302768145294e+05	1.22130792819673e-05,-2.47516521022226e-03	9.99998969659939e-01,2.08813937733722e-04	1.00000000000000e+00,-8.67361737988404e-19	3.03920699335856e-09,1.49962013892659e-11	1.11028023864500e-02,-2.25015019109615e+00	1.11027993472430e-02,-2.25015019111115e+00	-1.11028023855702e-02,2.25015019109615e+00	-1.11028023857216e-02,2.25015019109615e+00
1.68690746095038e+05	1.21569666243410e-05,-2.46947276444717e-03	9.99998974393806e-01,2.08333702308336e-04	1.00000000000000e+00,-8.67361737988404e-19	3.03920733332655e-09,1.49617127378907e-11	1.10517908795173e-02,-2.24497524039156e+00	1.10517878403100e-02,-2.24497524040652e+00	-1.10517908797271e-02,2.24497524039156e+00	-1.10517908797192e-02,2.24497524039156e+00
1.69079618426326e+05	1.21011117684906e-05,-2.46379340903252e-03	9.99998979105925e-01,2.07854571233357e-04	1.00000000000000e+00,-8.67361737988404e-19	3.03920767173261e-09,1.49273033966481e-11	1.10010137378355e-02,-2.23981219001464e+00	1.10010106986278e-02,-2.23981219002956e+00	-1.10010137374182e-02,2.23981219001464e+00	-1.10010137377685e-02,2.23981219001464e+00
1.69469387200919e+05	1.20455135300387e-05,-2.45812711388440e-03	9.99998983796395e-01,2.07376541969957e-04	1.00000000000000e+00,8.67361737988404e-19	3.03920800858391e-09,1.48929731832091e-11	1.09504698846978e-02,-2.23466101260729e+00	1.09504668454898e-02,-2.23466101262218e+00	-1.09504698855079e-02,2.23466101260729e+00	-1.09504698848468e-02,2.23466101260729e+00
1.69860054485333e+05	1.19901707300489e-05,-2.45247384897803e-03	9.99998988465315e-01,2.06899611985131e-04	1.00000000000000e+00,0.00000000000000e+00	3.03920834388759e-09,1.48587219156634e-11	1.09001582483437e-02,-2.22952168087426e+00	1.09001552091354e-02,-2.22952168088911e+00	-1.09001582472711e-02,2.22952168087426e+00	-1.09001582477504e-02,2.22952168087426e+00
