Freq.	V(n003)	V(n002)	V(n001)	I(C1)	I(L1)	I(R2)	I(R1)	I(V1)
1.50000000000000e+05	0.00000000000000e+00,0.00000000000000e+00	0.00000000000000e+00,0.00000000000000e+00	0.00000000000000e+00,0.00000000000000e+00	0.00000000000000e+00,0.00000000000000e+00	0.00000000000000e+00,0.00000000000000e+00	0.00000000000000e+00,0.00000000000000e+00	0.00000000000000e+00,0.00000000000000e+00	0.00000000000000e+00,0.00000000000000e+00
1.50345785711685e+05	0.00000000000000e+00,0.00000000000000e+00	0.00000000000000e+00,0.00000000000000e+00	0.00000000000000e+00,0.00000000000000e+00	0.00000000000000e+00,0.00000000000000e+00	0.00000000000000e+00,0.00000000000000e+00	0.00000000000000e+00,0.00000000000000e+00	0.00000000000000e+00,0.00000000000000e+00	0.00000000000000e+00,0.00000000000000e+00
1.50692368541759e+05	0.00000000000000e+00,0.00000000000000e+00	0.00000000000000e+00,0.00000000000000e+00	0.00000000000000e+00,0.00000000000000e+00	0.00000000000000e+00,0.00000000000000e+00	0.00000000000000e+00,0.00000000000000e+00	0.00000000000000e+00,0.00000000000000e+00	0.00000000000000e+00,0.00000000000000e+00	0.00000000000000e+00,0.00000000000000e+00
1.51039750327771e+05	0.00000000000000e+00,0.00000000000000e+00	0.00000000000000e+00,0.00000000000000e+00	0.00000000000000e+00,0.00000000000000e+00	0.00000000000000e+00,0.00000000000000e+00	0.00000000000000e+00,0.00000000000000e+00	0.00000000000000e+00,0.00000000000000e+00	0.00000000000000e+00,0.00000000000000e+00	0.00000000000000e+00,0.00000000000000e+00
1.51387932911503e+05	0.00000000000000e+00,0.00000000000000e+00	0.00000000000000e+00,0.00000000000000e+00	0.00000000000000e+00,0.00000000000000e+00	0.00000000000000e+00,0.00000000000000e+00	0.00000000000000e+00,0.00000000000000e+00	0.00000000000000e+00,0.00000000000000e+00	0.00000000000000e+00,0.00000000000000e+00	0.00000000000000e+00,0.00000000000000e+00
1.51736918138985e+05	0.00000000000000e+00,0.00000000000000e+00	0.00000000000000e+00,0.00000000000000e+00	0.00000000000000e+00,0.00000000000000e+00	0.00000000000000e+00,0.00000000000000e+00	0.00000000000000e+00,0.00000000000000e+00	0.00000000000000e+00,0.00000000000000e+00	0.00000000000000e+00,0.00000000000000e+00	0.00000000000000e+00,0.00000000000000e+00
1.52086707860502e+05	0.00000000000000e+00,0.00000000000000e+00	0.00000000000000e+00,0.00000000000000e+00	0.00000000000000e+00,0.00000000000000e+00	0.00000000000000e+00,0.00000000000000e+00	0.00000000000000e+00,0.00000000000000e+00	0.00000000000000e+00,0.00000000000000e+00	0.00000000000000e+00,0.00000000000000e+00	0.00000000000000e+00,0.00000000000000e+00
1.52437303930604e+05	0.00000000000000e+00,0.00000000000000e+00	0.00000000000000e+00,0.00000000000000e+00	0.00000000000000e+00,0.00000000000000e+00	0.00000000000000e+00,0.00000000000000e+00	0.00000000000000e+00,0.00000000000000e+00	0.00000000000000e+00,0.00000000000000e+00	0.00000000000000e+00,0.00000000000000e+00	0.00000000000000e+00,0.00000000000000e+00
1.52788708208117e+05	0.00000000000000e+00,0.00000000000000e+00	0.00000000000000e+00,0.00000000000000e+00	0.00000000000000e+00,0.00000000000000e+00	0.00000000000000e+00,0.00000000000000e+00	0.00000000000000e+00,0.00000000000000e+00	0.00000000000000e+00,0.00000000000000e+00	0.00000000000000e+00,0.00000000000000e+00	0.00000000000000e+00,0.00000000000000e+00
1.53140922556152e+05	0.00000000000000e+00,0.00000000000000e+00	0.00000000000000e+00,0.00000000000000e+00	0.00000000000000e+00,0.00000000000000e+00	0.00000000000000e+00,0.00000000000000e+00	0.00000000000000e+00,0.00000000000000e+00	0.00000000000000e+00,0.00000000000000e+00	0.00000000000000e+00,0.00000000000000e+00	0.00000000000000e+00,0.00000000000000e+00
1.53493948842113e+05	0.00000000000000e+00,0.00000000000000e+00	0.00000000000000e+00,0.00000000000000e+00	0.00000000000000e+00,0.00000000000000e+00	0.00000000000000e+00,0.00000000000000e+00	0.00000000000000e+00,0.00000000000000e+00	0.00000000000000e+00,0.00000000000000e+00	0.00000000000000e+00,0.00000000000000e+00	0.00000000000000e+00,0.00000000000000e+00
1.53847788937711e+05	0.00000000000000e+00,0.00000000000000e+00	0.00000000000000e+00,0.00000000000000e+00	0.00000000000000e+00,0.00000000000000e+00	0.00000000000000e+00,0.00000000000000e+00	0.00000000000000e+00,0.00000000000000e+00	0.00000000000000e+00,0.00000000000000e+00	0.00000000000000e+00,0.00000000000000e+00	0.00000000000000e+00,0.00000000000000e+00
1.54202444718971e+05	0.00000000000000e+00,0.00000000000000e+00	0.00000000000000e+00,0.00000000000000e+00	0.00000000000000e+00,0.00000000000000e+00	0.00000000000000e+00,0.00000000000000e+00	0.00000000000000e+00,0.00000000000000e+00	0.00000000000000e+00,0.00000000000000e+00	0.00000000000000e+00,0.00000000000000e+00	0.00000000000000e+00,0.00000000000000e+00
1.54557918066242e+05	0.00000000000000e+00,0.00000000000000e+00	0.00000000000000e+00,0.00000000000000e+00	0.00000000000000e+00,0.00000000000000e+00	0.00000000000000e+00,0.00000000000000e+00	0.00000000000000e+00,0.00000000000000e+00	0.00000000000000e+00,0.00000000000000e+00	0.00000000000000e+00,0.00000000000000e+00	0.00000000000000e+00,0.00000000000000e+00
1.54914210864209e+05	0.00000000000000e+00,0.00000000000000e+00	0.00000000000000e+00,0.00000000000000e+00	0.00000000000000e+00,0.00000000000000e+00	0.00000000000000e+00,0.00000000000000e+00	0.00000000000000e+00,0.00000000000000e+00	0.00000000000000e+00,0.00000000000000e+00	0.00000000000000e+00,0.00000000000000e+00	0.00000000000000e+00,0.00000000000000e+00
1.55271325001901e+05	0.00000000000000e+00,0.00000000000000e+00	0.00000000000000e+00,0.00000000000000e+00	0.00000000000000e+00,0.00000000000000e+00	0.00000000000000e+00,0.00000000000000e+00	0.00000000000000e+00,0.00000000000000e+00	0.00000000000000e+00,0.00000000000000e+00	0.00000000000000e+00,0.00000000000000e+00	0.00000000000000e+00,0.00000000000000e+00
1.55629262372702e+05	0.00000000000000e+00,0.00000000000000e+00	0.00000000000000e+00,0.00000000000000e+00	0.00000000000000e+00,0.00000000000000e+00	0.00000000000000e+00,0.00000000000000e+00	0.00000000000000e+00,0.00000000000000e+00	0.00000000000000e+00,0.00000000000000e+00	0.00000000000000e+00,0.00000000000000e+00	0.00000000000000e+00,0.00000000000000e+00
1.55988024874359e+05	0.00000000000000e+00,0.00000000000000e+00	0.00000000000000e+00,0.00000000000000e+00	0.00000000000000e+00,0.00000000000000e+00	0.00000000000000e+00,0.00000000000000e+00	0.00000000000000e+00,0.00000000000000e+00	0.00000000000000e+00,0.00000000000000e+00	0.00000000000000e+00,0.00000000000000e+00	0.00000000000000e+00,0.00000000000000e+00
1.56347614408995e+05	0.00000000000000e+00,0.00000000000000e+00	0.00000000000000e+00,0.00000000000000e+00	0.00000000000000e+00,0.00000000000000e+00	0.00000000000000e+00,0.00000000000000e+00	0.00000000000000e+00,0.00000000000000e+00	0.00000000000000e+00,0.00000000000000e+00	0.00000000000000e+00,0.00000000000000e+00	0.00000000000000e+00,0.00000000000000e+00
1.56708032883120e+05	0.00000000000000e+00,0.00000000000000e+00	0.00000000000000e+00,0.00000000000000e+00	0.00000000000000e+00,0.00000000000000e+00	0.00000000000000e+00,0.00000000000000e+00	0.00000000000000e+00,0.00000000000000e+00	0.00000000000000e+00,0.00000000000000e+00	0.00000000000000e+00,0.00000000000000e+00	0.00000000000000e+00,0.00000000000000e+00
1.57069282207635e+05	0.00000000000000e+00,0.00000000000000e+00	0.00000000000000e+00,0.00000000000000e+00	0.00000000000000e+00,0.00000000000000e+00	0.00000000000000e+00,0.00000000000000e+00	0.00000000000000e+00,0.00000000000000e+00	0.00000000000000e+00,0.00000000000000e+00	0.00000000000000e+00,0.00000000000000e+00	0.00000000000000e+00,0.00000000000000e+00
1.57431364297848e+05	0.00000000000000e+00,0.00000000000000e+00	0.00000000000000e+00,0.00000000000000e+00	0.00000000000000e+00,0.00000000000000e+00	0.00000000000000e+00,0.00000000000000e+00	0.00000000000000e+00,0.00000000000000e+00	0.00000000000000e+00,0.00000000000000e+00	0.00000000000000e+00,0.00000000000000e+00	0.00000000000000e+00,0.00000000000000e+00
1.57794281073483e+05	0.00000000000000e+00,0.00000000000000e+00	0.00000000000000e+00,0.00000000000000e+00	0.00000000000000e+00,0.00000000000000e+00	0.00000000000000e+00,0.00000000000000e+00	0.00000000000000e+00,0.00000000000000e+00	0.00000000000000e+00,0.00000000000000e+00	0.00000000000000e+00,0.00000000000000e+00	0.00000000000000e+00,0.00000000000000e+00
1.58158034458689e+05	0.00000000000000e+00,0.00000000000000e+00	0.00000000000000e+00,0.00000000000000e+00	0.00000000000000e+00,0.00000000000000e+00	0.00000000000000e+00,0.00000000000000e+00	0.00000000000000e+00,0.00000000000000e+00	0.00000000000000e+00,0.00000000000000e+00	0.00000000000000e+00,0.00000000000000e+00	0.00000000000000e+00,0.00000000000000e+00
1.58522626382049e+05	0.00000000000000e+00,0.00000000000000e+00	0.00000000000000e+00,0.00000000000000e+00	0.00000000000000e+00,0.00000000000000e+00	0.00000000000000e+00,0.00000000000000e+00	0.00000000000000e+00,0.00000000000000e+00	0.00000000000000e+00,0.00000000000000e+00	0.00000000000000e+00,0.00000000000000e+00	0.00000000000000e+00,0.00000000000000e+00
1.58888058776593e+05	0.00000000000000e+00,0.00000000000000e+00	0.00000000000000e+00,0.00000000000000e+00	0.00000000000000e+00,0.00000000000000e+00	0.00000000000000e+00,0.00000000000000e+00	0.00000000000000e+00,0.00000000000000e+00	0.00000000000000e+00,0.00000000000000e+00	0.00000000000000e+00,0.00000000000000e+00	0.00000000000000e+00,0.00000000000000e+00
1.59254333579808e+05	0.00000000000000e+00,0.00000000000000e+00	0.00000000000000e+00,0.00000000000000e+00	0.00000000000000e+00,0.00000000000000e+00	0.00000000000000e+00,0.00000000000000e+00	0.00000000000000e+00,0.00000000000000e+00	0.00000000000000e+00,0.00000000000000e+00	0.00000000000000e+00,0.00000000000000e+00	0.00000000000000e+00,0.00000000000000e+00
1.59621452733647e+05	0.00000000000000e+00,0.00000000000000e+00	0.00000000000000e+00,0.00000000000000e+00	0.00000000000000e+00,0.00000000000000e+00	0.00000000000000e+00,0.00000000000000e+00	0.00000000000000e+00,0.00000000000000e+00	0.00000000000000e+00,0.00000000000000e+00	0.00000000000000e+00,0.00000000000000e+00	0.00000000000000e+00,0.00000000000000e+00
1.59989418184538e+05	0.00000000000000e+00,0.00000000000000e+00	0.00000000000000e+00,0.00000000000000e+00	0.00000000000000e+00,0.00000000000000e+00	0.00000000000000e+00,0.00000000000000e+00	0.00000000000000e+00,0.00000000000000e+00	0.00000000000000e+00,0.00000000000000e+00	0.00000000000000e+00,0.00000000000000e+00	0.00000000000000e+00,0.00000000000000e+00
1.60358231883398e+05	0.00000000000000e+00,0.00000000000000e+00	0.00000000000000e+00,0.00000000000000e+00	0.00000000000000e+00,0.00000000000000e+00	0.00000000000000e+00,0.00000000000000e+00	0.00000000000000e+00,0.00000000000000e+00	0.00000000000000e+00,0.00000000000000e+00	0.00000000000000e+00,0.00000000000000e+00	0.00000000000000e+00,0.00000000000000e+00
1.60727895785641e+05	0.00000000000000e+00,0.00000000000000e+00	0.00000000000000e+00,0.00000000000000e+00	0.00000000000000e+00,0.00000000000000e+00	0.00000000000000e+00,0.00000000000000e+00	0.00000000000000e+00,0.00000000000000e+00	0.00000000000000e+00,0.00000000000000e+00	0.00000000000000e+00,0.00000000000000e+00	0.00000000000000e+00,0.00000000000000e+00
1.61098411851186e+05	0.00000000000000e+00,0.00000000000000e+00	0.00000000000000e+00,0.00000000000000e+00	0.00000000000000e+00,0.00000000000000e+00	0.00000000000000e+00,0.00000000000000e+00	0.00000000000000e+00,0.00000000000000e+00	0.00000000000000e+00,0.00000000000000e+00	0.00000000000000e+00,0.00000000000000e+00	0.00000000000000e+00,0.00000000000000e+00
1.61469782044475e+05	0.00000000000000e+00,0.00000000000000e+00	0.00000000000000e+00,0.00000000000000e+00	0.00000000000000e+00,0.00000000000000e+00	0.00000000000000e+00,0.00000000000000e+00	0.00000000000000e+00,0.00000000000000e+00	0.00000000000000e+00,0.00000000000000e+00	0.00000000000000e+00,0.00000000000000e+00	0.00000000000000e+00,0.00000000000000e+00
1.61842008334474e+05	0.00000000000000e+00,0.00000000000000e+00	0.00000000000000e+00,0.00000000000000e+00	0.00000000000000e+00,0.00000000000000e+00	0.00000000000000e+00,0.00000000000000e+00	0.00000000000000e+00,0.00000000000000e+00	0.00000000000000e+00,0.00000000000000e+00	0.00000000000000e+00,0.00000000000000e+00	0.00000000000000e+00,0.00000000000000e+00
1.62215092694690e+05	0.00000000000000e+00,0.00000000000000e+00	0.00000000000000e+00,0.00000000000000e+00	0.00000000000000e+00,0.00000000000000e+00	0.00000000000000e+00,0.00000000000000e+00	0.00000000000000e+00,0.00000000000000e+00	0.00000000000000e+00,0.00000000000000e+00	0.00000000000000e+00,0.00000000000000e+00	0.00000000000000e+00,0.00000000000000e+00
1.62589037103180e+05	0.00000000000000e+00,0.00000000000000e+00	0.00000000000000e+00,0.00000000000000e+00	0.00000000000000e+00,0.00000000000000e+00	0.00000000000000e+00,0.00000000000000e+00	0.00000000000000e+00,0.00000000000000e+00	0.00000000000000e+00,0.00000000000000e+00	0.00000000000000e+00,0.00000000000000e+00	0.00000000000000e+00,0.00000000000000e+00
1.62963843542559e+05	0.00000000000000e+00,0.00000000000000e+00	0.00000000000000e+00,0.00000000000000e+00	0.00000000000000e+00,0.00000000000000e+00	0.00000000000000e+00,0.00000000000000e+00	0.00000000000000e+00,0.00000000000000e+00	0.00000000000000e+00,0.00000000000000e+00	0.00000000000000e+00,0.00000000000000e+00	0.00000000000000e+00,0.00000000000000e+00
1.63339514000015e+05	0.00000000000000e+00,0.00000000000000e+00	0.00000000000000e+00,0.00000000000000e+00	0.00000000000000e+00,0.00000000000000e+00	0.00000000000000e+00,0.00000000000000e+00	0.00000000000000e+00,0.00000000000000e+00	0.00000000000000e+00,0.00000000000000e+00	0.00000000000000e+00,0.00000000000000e+00	0.00000000000000e+00,0.00000000000000e+00
1.63716050467313e+05	0.00000000000000e+00,0.00000000000000e+00	0.00000000000000e+00,0.00000000000000e+00	0.00000000000000e+00,0.00000000000000e+00	0.00000000000000e+00,0.00000000000000e+00	0.00000000000000e+00,0.00000000000000e+00	0.00000000000000e+00,0.00000000000000e+00	0.00000000000000e+00,0.00000000000000e+00	0.00000000000000e+00,0.00000000000000e+00
1.64093454940814e+05	0.00000000000000e+00,0.00000000000000e+00	0.00000000000000e+00,0.00000000000000e+00	0.00000000000000e+00,0.00000000000000e+00	0.00000000000000e+00,0.00000000000000e+00	0.00000000000000e+00,0.00000000000000e+00	0.00000000000000e+00,0.00000000000000e+00	0.00000000000000e+00,0.00000000000000e+00	0.00000000000000e+00,0.00000000000000e+00
1.64471729421477e+05	0.00000000000000e+00,0.00000000000000e+00	0.00000000000000e+00,0.00000000000000e+00	0.00000000000000e+00,0.00000000000000e+00	0.00000000000000e+00,0.00000000000000e+00	0.00000000000000e+00,0.00000000000000e+00	0.00000000000000e+00,0.00000000000000e+00	0.00000000000000e+00,0.00000000000000e+00	0.00000000000000e+00,0.00000000000000e+00
1.64850875914878e+05	0.00000000000000e+00,0.00000000000000e+00	0.00000000000000e+00,0.00000000000000e+00	0.00000000000000e+00,0.00000000000000e+00	0.00000000000000e+00,0.00000000000000e+00	0.00000000000000e+00,0.00000000000000e+00	0.00000000000000e+00,0.00000000000000e+00	0.00000000000000e+00,0.00000000000000e+00	0.00000000000000e+00,0.00000000000000e+00
1.65230896431212e+05	0.00000000000000e+00,0.00000000000000e+00	0.00000000000000e+00,0.00000000000000e+00	0.00000000000000e+00,0.00000000000000e+00	0.00000000000000e+00,0.00000000000000e+00	0.00000000000000e+00,0.00000000000000e+00	0.00000000000000e+00,0.00000000000000e+00	0.00000000000000e+00,0.00000000000000e+00	0.00000000000000e+00,0.00000000000000e+00
1.65611792985311e+05	0.00000000000000e+00,0.00000000000000e+00	0.00000000000000e+00,0.00000000000000e+00	0.00000000000000e+00,0.00000000000000e+00	0.00000000000000e+00,0.00000000000000e+00	0.00000000000000e+00,0.00000000000000e+00	0.00000000000000e+00,0.00000000000000e+00	0.00000000000000e+00,0.00000000000000e+00	0.00000000000000e+00,0.00000000000000e+00
1.65993567596650e+05	0.00000000000000e+00,0.00000000000000e+00	0.00000000000000e+00,0.00000000000000e+00	0.00000000000000e+00,0.00000000000000e+00	0.00000000000000e+00,0.00000000000000e+00	0.00000000000000e+00,0.00000000000000e+00	0.00000000000000e+00,0.00000000000000e+00	0.00000000000000e+00,0.00000000000000e+00	0.00000000000000e+00,0.00000000000000e+00
1.66376222289360e+05	0.00000000000000e+00,0.00000000000000e+00	0.00000000000000e+00,0.00000000000000e+00	0.00000000000000e+00,0.00000000000000e+00	0.00000000000000e+00,0.00000000000000e+00	0.00000000000000e+00,0.00000000000000e+00	0.00000000000000e+00,0.00000000000000e+00	0.00000000000000e+00,0.00000000000000e+00	0.00000000000000e+00,0.00000000000000e+00
1.66759759092238e+05	0.00000000000000e+00,0.00000000000000e+00	0.00000000000000e+00,0.00000000000000e+00	0.00000000000000e+00,0.00000000000000e+00	0.00000000000000e+00,0.00000000000000e+00	0.00000000000000e+00,0.00000000000000e+00	0.00000000000000e+00,0.00000000000000e+00	0.00000000000000e+00,0.00000000000000e+00	0.00000000000000e+00,0.00000000000000e+00
1.67144180038759e+05	0.00000000000000e+00,0.00000000000000e+00	0.00000000000000e+00,0.00000000000000e+00	0.00000000000000e+00,0.00000000000000e+00	0.00000000000000e+00,0.00000000000000e+00	0.00000000000000e+00,0.00000000000000e+00	0.00000000000000e+00,0.00000000000000e+00	0.00000000000000e+00,0.00000000000000e+00	0.00000000000000e+00,0.00000000000000e+00
1.67529487167084e+05	0.00000000000000e+00,0.00000000000000e+00	0.00000000000000e+00,0.00000000000000e+00	0.00000000000000e+00,0.00000000000000e+00	0.00000000000000e+00,0.00000000000000e+00	0.00000000000000e+00,0.00000000000000e+00	0.00000000000000e+00,0.00000000000000e+00	0.00000000000000e+00,0.00000000000000e+00	0.00000000000000e+00,0.00000000000000e+00
1.67915682520072e+05	0.00000000000000e+00,0.00000000000000e+00	0.00000000000000e+00,0.00000000000000e+00	0.00000000000000e+00,0.00000000000000e+00	0.00000000000000e+00,0.00000000000000e+00	0.00000000000000e+00,0.00000000000000e+00	0.00000000000000e+00,0.00000000000000e+00	0.00000000000000e+00,0.00000000000000e+00	0.00000000000000e+00,0.00000000000000e+00
1.68302768145294e+05	0.00000000000000e+00,0.00000000000000e+00	0.00000000000000e+00,0.00000000000000e+00	0.00000000000000e+00,0.00000000000000e+00	0.00000000000000e+00,0.00000000000000e+00	0.00000000000000e+00,0.00000000000000e+00	0.00000000000000e+00,0.00000000000000e+00	0.00000000000000e+00,0.00000000000000e+00	0.00000000000000e+00,0.00000000000000e+00
1.68690746095038e+05	0.00000000000000e+00,0.00000000000000e+00	0.00000000000000e+00,0.00000000000000e+00	0.00000000000000e+00,0.00000000000000e+00	0.00000000000000e+00,0.00000000000000e+00	0.00000000000000e+00,0.00000000000000e+00	0.00000000000000e+00,0.00000000000000e+00	0.00000000000000e+00,0.00000000000000e+00	0.00000000000000e+00,0.00000000000000e+00
1.69079618426326e+05	0.00000000000000e+00,0.00000000000000e+00	0.00000000000000e+00,0.00000000000000e+00	0.00000000000000e+00,0.00000000000000e+00	0.00000000000000e+00,0.00000000000000e+00	0.00000000000000e+00,0.00000000000000e+00	0.00000000000000e+00,0.00000000000000e+00	0.00000000000000e+00,0.00000000000000e+00	0.00000000000000e+00,0.00000000000000e+00
1.69469387200919e+05	0.00000000000000e+00,0.00000000000000e+00	0.00000000000000e+00,0.00000000000000e+00	0.00000000000000e+00,0.00000000000000e+00	0.00000000000000e+00,0.00000000000000e+00	0.00000000000000e+00,0.00000000000000e+00	0.00000000000000e+00,0.00000000000000e+00	0.00000000000000e+00,0.00000000000000e+00	0.00000000000000e+00,0.00000000000000e+00
1.69860054485333e+05	0.00000000000000e+00,0.00000000000000e+00	0.00000000000000e+00,0.00000000000000e+00	0.00000000000000e+00,0.00000000000000e+00	0.00000000000000e+00,0.00000000000000e+00	0.00000000000000e+00,0.00000000000000e+00	0.00000000000000e+00,0.00000000000000e+00	0.00000000000000e+00,0.00000000000000e+00	0.00000000000000e+00,0.00000000000000e+00
