Freq.	-V(n001)/I(V1)
1.50000000000000e+05	7.57910395989800e+02,-9.13783738838965e+05
1.50345785711685e+05	7.57451867823920e+02,-9.11682089769585e+05
1.50692368541759e+05	7.53971693290319e+02,-9.09585280998756e+05
1.51039750327771e+05	7.50507507220100e+02,-9.07493293846784e+05
1.51387932911503e+05	7.47059237533000e+02,-9.05406118056465e+05
1.51736918138985e+05	7.43626811296912e+02,-9.03323742681418e+05
1.52086707860502e+05	7.40210155951746e+02,-9.01246156823736e+05
1.52437303930604e+05	7.36809198718209e+02,-8.99173349274391e+05
1.52788708208117e+05	7.33423867199696e+02,-8.97105308878328e+05
1.53140922556152e+05	7.27139706229722e+02,-8.95042029634441e+05
1.53493948842113e+05	7.26699795345891e+02,-8.92983486254378e+05
1.53847788937711e+05	7.23360910935407e+02,-8.90929681265973e+05
1.54202444718971e+05	7.20037369255435e+02,-8.88880601089305e+05
1.54557918066242e+05	7.16729098026262e+02,-8.86836233758108e+05
1.54914210864209e+05	7.10587981614987e+02,-8.84796572307376e+05
1.55271325001901e+05	7.10158083758714e+02,-8.82761592537960e+05
1.55629262372702e+05	7.04073269808221e+02,-8.80731302661403e+05
1.55988024874359e+05	7.03647313848643e+02,-8.78705673135294e+05
1.56347614408995e+05	7.00414347166727e+02,-8.76684706869588e+05
1.56708032883120e+05	6.97196234699284e+02,-8.74668388738404e+05
1.57069282207635e+05	6.91222481118823e+02,-8.72656712581418e+05
1.57431364297848e+05	6.88046600123649e+02,-8.70649657715058e+05
1.57794281073483e+05	6.87630340212370e+02,-8.68647215458648e+05
1.58158034458689e+05	6.84470964531251e+02,-8.66649382757752e+05
1.58522626382049e+05	6.78606244493072e+02,-8.64656149825453e+05
1.58888058776593e+05	6.78195694668039e+02,-8.62667491519174e+05
1.59254333579808e+05	6.72384741671840e+02,-8.60683415952290e+05
1.59621452733647e+05	6.69295413768116e+02,-8.58703899822223e+05
1.59989418184538e+05	6.68890497996762e+02,-8.56728932055496e+05
1.60358231883398e+05	6.63159274738689e+02,-8.54758515008762e+05
1.60727895785641e+05	6.60112333074684e+02,-8.52792625144099e+05
1.61098411851186e+05	6.59712972754548e+02,-8.50831252837504e+05
1.61469782044475e+05	6.56681865249484e+02,-8.48874395314093e+05
1.61842008334474e+05	6.51055248295690e+02,-8.46922042866933e+05
1.62215092694690e+05	6.50661367432717e+02,-8.44974172578854e+05
1.62589037103180e+05	6.45086335570963e+02,-8.43030790305065e+05
1.62963843542559e+05	6.44696065858458e+02,-8.41091869692015e+05
1.63339514000015e+05	6.41733955031781e+02,-8.39157412244544e+05
1.63716050467313e+05	6.38785453948918e+02,-8.37227403968685e+05
1.64093454940814e+05	6.33312178026548e+02,-8.35301838734822e+05
1.64471729421477e+05	6.32929031296240e+02,-8.33380694103392e+05
1.64850875914878e+05	6.30020984972215e+02,-8.31463971755175e+05
1.65230896431212e+05	6.27126300284116e+02,-8.29551657985219e+05
1.65611792985311e+05	6.24244914504312e+02,-8.27643741769289e+05
1.65993567596650e+05	6.18896225713370e+02,-8.25740218294031e+05
1.66376222289360e+05	6.18521800028132e+02,-8.23841064544769e+05
1.66759759092238e+05	6.15679949748709e+02,-8.21946283240127e+05
1.67144180038759e+05	6.12851155722193e+02,-8.20055859225637e+05
1.67529487167084e+05	6.10035359075499e+02,-8.18169783224868e+05
1.67915682520072e+05	6.07232499893845e+02,-8.16288045105914e+05
1.68302768145294e+05	6.02029577467963e+02,-8.14410638654156e+05
1.68690746095038e+05	5.99263500742292e+02,-8.12537545776184e+05
1.69079618426326e+05	5.96510133108328e+02,-8.10668760965993e+05
1.69469387200919e+05	5.96149251731399e+02,-8.08804271356913e+05
1.69860054485333e+05	5.93410192460548e+02,-8.06944072621245e+05
1.70251622350847e+05	5.90683719350734e+02,-8.05088153117692e+05
1.70644092873514e+05	5.87969772499869e+02,-8.03236501591882e+05
1.71037468134175e+05	5.82931897374294e+02,-8.01389112262632e+05
1.71431750218465e+05	5.82579229669087e+02,-7.99545964623360e+05
1.71826941216830e+05	5.79902520031442e+02,-7.97707060069233e+05
1.72223043224532e+05	5.77238108120463e+02,-7.95872384430463e+05
1.72620058341665e+05	5.74585938457080e+02,-7.94041928686277e+05
1.73017988673163e+05	5.71945954216006e+02,-7.92215682732666e+05
1.73416836328814e+05	5.67045374678725e+02,-7.90393640062332e+05
1.73816603423268e+05	5.66702319006190e+02,-7.88575781972337e+05
1.74217292076051e+05	5.64098556657705e+02,-7.86762107745944e+05
1.74618904411573e+05	5.61506757375574e+02,-7.84952604751021e+05
1.75021442559144e+05	5.56695623861270e+02,-7.83147266840921e+05
1.75424908652980e+05	5.56358829185001e+02,-7.81346074651806e+05
1.75829304832219e+05	5.51591803841807e+02,-7.79549031074179e+05
1.76234633240929e+05	5.51258097271394e+02,-7.77756114867561e+05
1.76640896028120e+05	5.48725294777949e+02,-7.75967325202522e+05
1.77048095347759e+05	5.46204128611591e+02,-7.74182649033124e+05
1.77456233358774e+05	5.43694546988338e+02,-7.72402078089282e+05
1.77865312225073e+05	5.41196495761062e+02,-7.70625602276301e+05
1.78275334115552e+05	5.38709922186171e+02,-7.68853212342215e+05
1.78686301204105e+05	5.36234773056381e+02,-7.67084898552509e+05
1.79098215669640e+05	5.31640176257173e+02,-7.65320654968552e+05
1.79511079696086e+05	5.31318539248711e+02,-7.63560462526093e+05
1.79924895472406e+05	5.28877350253801e+02,-7.61804321562983e+05
1.80339665192611e+05	5.26447378146956e+02,-7.60052220067261e+05
1.80755391055769e+05	5.21936641229513e+02,-7.58304150384368e+05
1.81172075266016e+05	5.21620875348346e+02,-7.56560095925099e+05
1.81589720032572e+05	5.19224243189290e+02,-7.54820055407066e+05
1.82008327569746e+05	5.16838622837605e+02,-7.53084017068313e+05
1.82427900096954e+05	5.14463963166001e+02,-7.51351971316123e+05
1.82848439838729e+05	5.12100214004836e+02,-7.49623909106137e+05
1.83269949024730e+05	5.07712407855654e+02,-7.47899824201865e+05
1.83692429889756e+05	5.07405247134413e+02,-7.46179698837968e+05
1.84115884673760e+05	5.05073930027224e+02,-7.44463532645289e+05
1.84540315621856e+05	5.02753323967408e+02,-7.42751313234886e+05
1.84965724984335e+05	4.98445604242526e+02,-7.41043034705771e+05
1.85392115016676e+05	4.96155452479036e+02,-7.39338682121416e+05
1.85819487979554e+05	4.95855284096223e+02,-7.37638247263595e+05
1.86247846138861e+05	4.93577034182290e+02,-7.35941725772922e+05
1.86677191765707e+05	4.91309251411365e+02,-7.34249105817895e+05
1.87107527136440e+05	4.89051888779716e+02,-7.32560379238844e+05
1.87538854532657e+05	4.86804896973864e+02,-7.30875536004480e+05
1.87971176241211e+05	4.84568229477548e+02,-7.29194568033329e+05
1.88404494554230e+05	4.82341839054350e+02,-7.27517466564102e+05
1.88838811769124e+05	4.80125677469014e+02,-7.25844221937643e+05
1.89274130188600e+05	4.76011836267414e+02,-7.24174827761404e+05
1.89710452120672e+05	4.75723854416281e+02,-7.22509268790601e+05
1.90147779878676e+05	4.73538099574634e+02,-7.20847542571374e+05
1.90586115781280e+05	4.71362387893679e+02,-7.19189638611350e+05
1.91025462152498e+05	4.67323633510457e+02,-7.17535550029261e+05
1.91465821321700e+05	4.65176473853651e+02,-7.15885262756832e+05
1.91907195623628e+05	4.63039180255423e+02,-7.14238771613517e+05
1.92349587398402e+05	4.62759045996648e+02,-7.12596064440090e+05
1.92792998991541e+05	4.60632859478568e+02,-7.10957138244322e+05
1.93237432753969e+05	4.56686038074788e+02,-7.09321983526379e+05
1.93682891042029e+05	4.56409747706910e+02,-7.07690584916616e+05
1.94129376217497e+05	4.54312733188705e+02,-7.06062940694647e+05
1.94576890647592e+05	4.52225353453910e+02,-7.04439039846019e+05
1.95025436704992e+05	4.50147564512016e+02,-7.02818873977269e+05
1.95475016767844e+05	4.46290583956763e+02,-7.01202436793540e+05
1.95925633219775e+05	4.46020582761855e+02,-6.99589712695691e+05
1.96377288449910e+05	4.42198963024331e+02,-6.97980702174576e+05
1.96829984852879e+05	4.40167240965654e+02,-6.96375389869101e+05
1.97283724828834e+05	4.38144853903468e+02,-6.94773769735396e+05
1.97738510783460e+05	4.37879780911254e+02,-6.93175831295039e+05
1.98194345127985e+05	4.34127913579998e+02,-6.91581572177268e+05
1.98651230279198e+05	4.33865270137757e+02,-6.89990975084235e+05
1.99109168659460e+05	4.31871838481131e+02,-6.88404039057521e+05
1.99568162696712e+05	4.28171448416639e+02,-6.86820754454288e+05
2.00028214824497e+05	4.26204177131714e+02,-6.85241109415063e+05
2.00489327481965e+05	4.25946327704619e+02,-6.83665095205084e+05
2.00951503113889e+05	4.23989279893918e+02,-6.82092707954574e+05
2.01414744170678e+05	4.22041223848085e+02,-6.80523937043344e+05
2.01879053108391e+05	4.20102118343152e+02,-6.78958774226143e+05
2.02344432388747e+05	4.18171921862734e+02,-6.77397210886926e+05
2.02810884479140e+05	4.16250594362790e+02,-6.75839239467689e+05
2.03278411852654e+05	4.14338094125061e+02,-6.74284850920796e+05
2.03747016988072e+05	4.12434381393213e+02,-6.72734037657728e+05
2.04216702369891e+05	4.10539415007458e+02,-6.71186790815366e+05
2.04687470488337e+05	4.08653155617770e+02,-6.69643102874391e+05
2.05159323839376e+05	4.05151708905058e+02,-6.68102966827258e+05
2.05632264924727e+05	4.04906596073841e+02,-6.66566369403302e+05
2.06106296251876e+05	4.03046217138439e+02,-6.65033308114635e+05
2.06581420334091e+05	4.01194385462740e+02,-6.63503772426225e+05
2.07057639690431e+05	3.99351062224692e+02,-6.61977754600063e+05
2.07534956845766e+05	3.97516208676042e+02,-6.60455246831630e+05
2.08013374330782e+05	3.95689785102911e+02,-6.58936240384081e+05
2.08492894682001e+05	3.93871753394103e+02,-6.57420727721323e+05
2.08973520441794e+05	3.92062074479287e+02,-6.55908700379400e+05
2.09455254158389e+05	3.90260710635368e+02,-6.54400150889892e+05
2.09938098385891e+05	3.88467623080380e+02,-6.52895070769877e+05
2.10422055684292e+05	3.86682774252101e+02,-6.51393452429877e+05
2.10907128619485e+05	3.83369575332609e+02,-6.49895289188407e+05
2.11393319763280e+05	3.83137640354054e+02,-6.48400568264749e+05
2.11880631693412e+05	3.81377280457509e+02,-6.46909286872748e+05
2.12369066993561e+05	3.79625008518642e+02,-6.45421435187454e+05
2.12858628253362e+05	3.77880787604947e+02,-6.43937005514649e+05
2.13349318068421e+05	3.76144580647502e+02,-6.42455989917737e+05
2.13841139040327e+05	3.72921675839500e+02,-6.40978382331291e+05
2.14334093776664e+05	3.72696061289396e+02,-6.39504169391030e+05
2.14828184891030e+05	3.69502704471710e+02,-6.38033350943328e+05
2.15323415003047e+05	3.69279158457845e+02,-6.36565911481745e+05
2.15819786738375e+05	3.67582472258505e+02,-6.35101848770058e+05
2.16317302728729e+05	3.65893582114767e+02,-6.33641153725466e+05
2.16815965611887e+05	3.64212451245200e+02,-6.32183817769789e+05
2.17315778031712e+05	3.62539044501300e+02,-6.30729833612249e+05
2.17816742638160e+05	3.60873326299725e+02,-6.29279193461921e+05
2.18318862087293e+05	3.59215261543347e+02,-6.27831889827256e+05
2.18822139041300e+05	3.56137411288084e+02,-6.26387916439027e+05
2.19326576168506e+05	3.55921951374871e+02,-6.24947260995316e+05
2.19832176143385e+05	3.54286636075392e+02,-6.23509920465298e+05
2.20338941646578e+05	3.52658834342001e+02,-6.22075885696304e+05
2.20846875364906e+05	3.51038511583937e+02,-6.20645149024152e+05
2.21355979991382e+05	3.49425633582690e+02,-6.19217702990878e+05
2.21866258225229e+05	3.47820166102291e+02,-6.17793540001421e+05
2.22377712771891e+05	3.46222075273672e+02,-6.16372652664579e+05
2.22890346343049e+05	3.44631326645621e+02,-6.14955032949026e+05
2.23404161656635e+05	3.43047886891879e+02,-6.13540673702906e+05
2.23919161436847e+05	3.41471722663474e+02,-6.12129567635725e+05
2.24435348414163e+05	3.39902800040846e+02,-6.10721706824946e+05
2.24952725325354e+05	3.38341085839760e+02,-6.09317083884988e+05
2.25471294913501e+05	3.35442090863699e+02,-6.07915693195894e+05
2.25991059928009e+05	3.35239151081569e+02,-6.06517522483664e+05
2.26512023124620e+05	3.33698864545520e+02,-6.05122569004634e+05
2.27034187265429e+05	3.30839645220186e+02,-6.03730825311896e+05
2.27557555118898e+05	3.30639489900189e+02,-6.02342279574114e+05
2.28082129459872e+05	3.29120336832924e+02,-6.00956928812657e+05
2.28607913069592e+05	3.27608163636000e+02,-5.99574764257547e+05
2.29134908735709e+05	3.26102938291468e+02,-5.98195778628066e+05
2.29663119252302e+05	3.23308802674099e+02,-5.96819965924764e+05
2.30192547419892e+05	3.23113203394350e+02,-5.95447314713815e+05
2.30723196045453e+05	3.21628630543598e+02,-5.94077821955518e+05
2.31255067942432e+05	3.20150878604602e+02,-5.92711478860110e+05
2.31788165930760e+05	3.18679916378006e+02,-5.91348278313018e+05
2.32322492836870e+05	3.17215712489909e+02,-5.89988212921302e+05
2.32858051493710e+05	3.15758236062469e+02,-5.88631275635894e+05
2.33394844740759e+05	3.13052736458163e+02,-5.87277460548394e+05
2.33932875424041e+05	3.12863341877613e+02,-5.85926756422910e+05
2.34472146396141e+05	3.11425862746646e+02,-5.84579160175119e+05
2.35012660516220e+05	3.09994988404825e+02,-5.83234663466573e+05
2.35554420650030e+05	3.08570688117332e+02,-5.81893258802906e+05
2.36097429669931e+05	3.07152932029342e+02,-5.80554939402649e+05
2.36641690454900e+05	3.05741689724517e+02,-5.79219697840395e+05
2.37187205890555e+05	3.04336931654198e+02,-5.77887527396646e+05
2.37733978869165e+05	3.02938627793257e+02,-5.76558420787238e+05
2.38282012289664e+05	3.01546748738891e+02,-5.75232371205230e+05
2.38831309057673e+05	3.00161264545923e+02,-5.73909371213329e+05
2.39381872085507e+05	2.98782146116988e+02,-5.72589414069083e+05
2.39933704292198e+05	2.97409364196772e+02,-5.71272492767329e+05
2.40486808603504e+05	2.96042889681103e+02,-5.69958600335071e+05
2.41041187951929e+05	2.94682693466970e+02,-5.68647729687511e+05
2.41596845276738e+05	2.93328746899924e+02,-5.67339874059806e+05
2.42153783523970e+05	2.91981020881970e+02,-5.66035026146405e+05
2.42712005646457e+05	2.90639487275635e+02,-5.64733179459288e+05
2.43271514603837e+05	2.88149211448339e+02,-5.63434328153966e+05
2.43832313362570e+05	2.87974883051401e+02,-5.62138461615110e+05
2.44394404895956e+05	2.86651756007576e+02,-5.60845576783108e+05
2.44957792184147e+05	2.84195648106041e+02,-5.59555666702227e+05
2.45522478214169e+05	2.84023711581375e+02,-5.58268720857291e+05
2.46088465979928e+05	2.82718738571443e+02,-5.56984736206466e+05
2.46655758482237e+05	2.81419761214717e+02,-5.55703704479021e+05
2.47224358728823e+05	2.79008482329629e+02,-5.54425620274129e+05
2.47794269734349e+05	2.78839683923297e+02,-5.53150473162644e+05
2.48365494520426e+05	2.76450511769520e+02,-5.51878261171324e+05
2.48938036115631e+05	2.76283260931570e+02,-5.50608972853742e+05
2.49511897555523e+05	2.75013851911488e+02,-5.49342604935271e+05
2.50087081882656e+05	2.73750275376352e+02,-5.48079149654061e+05
2.50663592146603e+05	2.72492504341889e+02,-5.46818600124535e+05
2.51241431403963e+05	2.71240512361543e+02,-5.45560949891746e+05
2.51820602718381e+05	2.69994272663342e+02,-5.44306192066674e+05
2.52401109160567e+05	2.68753758942447e+02,-5.43054320122289e+05
2.52982953808308e+05	2.67518944769544e+02,-5.41805327299004e+05
2.53566139746487e+05	2.66289804110117e+02,-5.40559207129396e+05
2.54150670067096e+05	2.65066310997138e+02,-5.39315953108952e+05
2.54736547869259e+05	2.62795152475249e+02,-5.38075559342418e+05
2.55323776259240e+05	2.62636162947966e+02,-5.36838016359157e+05
2.55912358350465e+05	2.61429456625501e+02,-5.35603320645676e+05
2.56502297263540e+05	2.60228294628740e+02,-5.34371464659119e+05
2.57093596126261e+05	2.57998589412929e+02,-5.33142442793473e+05
2.57686258073635e+05	2.57842501792048e+02,-5.31916245714098e+05
2.58280286247898e+05	2.56657820310129e+02,-5.30692869691843e+05
2.58875683798527e+05	2.55478582049813e+02,-5.29472307456135e+05
2.59472453882262e+05	2.54304761685307e+02,-5.28254552207258e+05
2.60070599663117e+05	2.52125810912616e+02,-5.27039598890046e+05
2.60670124312403e+05	2.51973276087641e+02,-5.25827437797781e+05
2.61271031008739e+05	2.49814302171877e+02,-5.24618066761239e+05
2.61873322938072e+05	2.49663165766334e+02,-5.23411475023923e+05
2.62477003293695e+05	2.48516065021618e+02,-5.22207659477927e+05
2.63082075276261e+05	2.46386713263910e+02,-5.21006613548142e+05
2.63688542093801e+05	2.46237650488094e+02,-5.19808327903795e+05
2.64296406961741e+05	2.45106288498276e+02,-5.18612799279456e+05
2.64905673102921e+05	2.43006152398649e+02,-5.17420021071805e+05
2.65516343747610e+05	2.42859134906352e+02,-5.16229984453572e+05
2.66128422133521e+05	2.41743295844194e+02,-5.15042685827530e+05
2.66741911505835e+05	2.40632583428834e+02,-5.13858117724757e+05
2.67356815117210e+05	2.38570779228189e+02,-5.12676274985156e+05
2.67973136227804e+05	2.38426445074515e+02,-5.11497148674025e+05
2.68590878105291e+05	2.37330972265440e+02,-5.10320735119793e+05
2.69210044024875e+05	2.35297457118401e+02,-5.09147028102979e+05
2.69830637269315e+05	2.35155103279215e+02,-5.07976018830055e+05
2.70452661128932e+05	2.34074661008043e+02,-5.06807703718524e+05
2.71076118901635e+05	2.32999182775126e+02,-5.05642075493467e+05
2.71701013892937e+05	2.31928645910801e+02,-5.04479128124606e+05
2.72327349415967e+05	2.30863027859344e+02,-5.03318855607229e+05
2.72955128791494e+05	2.29802305819406e+02,-5.02161251569950e+05
2.73584355347942e+05	2.28746457213591e+02,-5.01006309785044e+05
2.74215032421408e+05	2.27695459886136e+02,-4.99854024387426e+05
2.74847163355678e+05	2.26649291489210e+02,-4.98704389203980e+05
2.75480751502248e+05	2.25607929841451e+02,-4.97557398145694e+05
2.76115800220340e+05	2.24571352677822e+02,-4.96413044932478e+05
2.76752312876917e+05	2.23539538294712e+02,-4.95271323805932e+05
2.77390292846708e+05	2.22512464557201e+02,-4.94132228433406e+05
2.78029743512218e+05	2.21490109789659e+02,-4.92995752892850e+05
2.78670668263751e+05	2.20472452281512e+02,-4.91861891126572e+05
2.79313070499426e+05	2.18583385311070e+02,-4.90730638154448e+05
2.79956953625196e+05	2.18451143191190e+02,-4.89601985305716e+05
2.80602321054866e+05	2.17447448364647e+02,-4.88475928847129e+05
2.81249176210109e+05	2.15584300315427e+02,-4.87352463239881e+05
2.81897522520486e+05	2.15453872672137e+02,-4.86231580052440e+05
2.82547363423466e+05	2.14463949180473e+02,-4.85113275427425e+05
2.83198702364440e+05	2.13478574034140e+02,-4.83997542890747e+05
2.83851542796742e+05	2.12497726219128e+02,-4.82884376394977e+05
2.84505888181668e+05	2.11521384922985e+02,-4.81773770025266e+05
2.85161741988491e+05	2.10549529665652e+02,-4.80665718150541e+05
2.85819107694483e+05	2.09582139576761e+02,-4.79560214600256e+05
2.86477988784931e+05	2.07786383414099e+02,-4.78457254367626e+05
2.87138388753159e+05	2.07660673265916e+02,-4.77356829419335e+05
2.87800311100539e+05	2.06706556242789e+02,-4.76258936047498e+05
2.88463759336519e+05	2.05756823094772e+02,-4.75163567873150e+05
2.89128736978636e+05	2.04811453487490e+02,-4.74070718866499e+05
2.89795247552534e+05	2.03870427452733e+02,-4.72980383326458e+05
2.90463294591987e+05	2.02933725081037e+02,-4.71892555527329e+05
2.91132881638912e+05	2.02001326480163e+02,-4.70807229670436e+05
2.91804012243395e+05	2.01073211819186e+02,-4.69724399935085e+05
2.92476689963702e+05	2.00149361495766e+02,-4.68644060674452e+05
2.93150918366305e+05	1.99229755841465e+02,-4.67566206072105e+05
2.93826701025894e+05	1.97522701504461e+02,-4.66490831107869e+05
2.94504041525402e+05	1.97403200708037e+02,-4.65417928100253e+05
2.95182943456022e+05	1.96496212562379e+02,-4.64347493423836e+05
2.95863410417223e+05	1.95593391590307e+02,-4.63279520600665e+05
2.96545446016774e+05	1.94694718708061e+02,-4.62214004042694e+05
2.97229053870760e+05	1.93800174889299e+02,-4.61150938139226e+05
2.97914237603601e+05	1.92909741086898e+02,-4.60090317163717e+05
2.98601000848073e+05	1.92023398432020e+02,-4.59032135510659e+05
2.99289347245327e+05	1.91141128191758e+02,-4.57976387646542e+05
2.99979280444907e+05	1.89503379293157e+02,-4.56923068554344e+05
3.00670804104769e+05	1.89388730038890e+02,-4.55872170718493e+05
3.01363921891304e+05	1.88518564987918e+02,-4.54823690529199e+05
3.02058637479353e+05	1.86903286843368e+02,-4.53777622356994e+05
3.02754954552229e+05	1.86790210655765e+02,-4.52733958893419e+05
3.03452876801736e+05	1.85931984732671e+02,-4.51692696382470e+05
3.04152407928187e+05	1.85077701972464e+02,-4.50653828666681e+05
3.04853551640428e+05	1.84227344253468e+02,-4.49617350232535e+05
3.05556311655853e+05	1.83380893620701e+02,-4.48583255681205e+05
3.06260691700424e+05	1.82538332028687e+02,-4.47551539414880e+05
3.06966695508696e+05	1.81699641671303e+02,-4.46522196040049e+05
